! Created Sun Jun 11 19:48:53 2017
# hz S ma R 50
! 4 Port Network Data from data block
! freq  magS11  angS11  magS12  angS12  magS13  angS13  magS14  angS14  
!       magS21  angS21  magS22  angS22  magS23  angS23  magS24  angS24  
!       magS31  angS31  magS32  angS32  magS33  angS33  magS34  angS34  
!       magS41  angS41  magS42  angS42  magS43  angS43  magS44  angS44  
!     
                 0      0.0109346548                  0    1.12361394e-022                  0        0.989065345                  0    6.73423357e-022                180
                  1.12361394e-022                  0      0.00960988105                  0    6.67363608e-022                180        0.990390119                  0
                      0.989065345                  0    6.67363608e-022                180       0.0109346548                  0    1.61209497e-022                  0
                  6.73423357e-022                180        0.990390119                  0    1.61209497e-022                  0      0.00960988105                  0

          20000000      0.0109399198          1.2977517      0.00027612681         89.9906783        0.989062678      -0.0264643247     0.000223788754        -90.0689592
                    0.00027612681         89.9906783      0.00961397863         1.15158518     0.000223730974        -90.0683562         0.99038778      -0.0219578582
                      0.989062678      -0.0264643247     0.000223730974        -90.0683562       0.0109399227         1.29799141     0.000275950565         89.9866156
                   0.000223788754        -90.0689592         0.99038778      -0.0219578582     0.000275950565         89.9866156      0.00961397772         1.15211464

          40000000       0.010950826         2.59338619      0.00055225413         89.9813577        0.989059557      -0.0529262289     0.000447572401        -90.1379112
                    0.00055225413         89.9813577       0.0096219715         2.30152786     0.000447456895        -90.1367053        0.990385059      -0.0439136041
                      0.989059557      -0.0529262289     0.000447456895        -90.1367053       0.0109508379         2.59386279     0.000551901378         89.9732326
                   0.000447572401        -90.1379112        0.990385059      -0.0439136041     0.000551901378         89.9732326      0.00962196782         2.30258655

          60000000      0.0109673691         3.88565577     0.000828384727         89.9720342        0.989055969      -0.0793862884     0.000671348111         -90.206855
                   0.000828384727         89.9720342      0.00963386074         3.44898324     0.000671175024        -90.2050463        0.990381943      -0.0658677447
                      0.989055969      -0.0793862884     0.000671175024        -90.2050463       0.0109673956         3.88636371      0.00082785503         89.9598471
                   0.000671348111         -90.206855        0.990381943      -0.0658677447      0.00082785503         89.9598471      0.00963385246         3.45057067

          80000000      0.0109895273         5.17328532      0.00110452135         89.9627044         0.98905191       -0.105844576     0.000895113053        -90.2757884
                    0.00110452135         89.9627044      0.00964963577         4.59307059     0.000894882614         -90.273377        0.990378429      -0.0878203448
                       0.98905191       -0.105844576     0.000894882614         -90.273377       0.0109895744          5.1742163       0.0011038141         89.9464559
                   0.000895113053        -90.2757884        0.990378429      -0.0878203448       0.0011038141         89.9464559      0.00964962098         4.59518602

         100000000      0.0110172699         6.45501559      0.00138066675         89.9533653        0.989047377       -0.132301046      0.00111886439        -90.3447089
                    0.00138066675         89.9533653      0.00966927999         5.73291329      0.00111857692        -90.3416952        0.990374514       -0.109771366
                      0.989047377       -0.132301046      0.00111857692        -90.3416952       0.0110173431          6.4561588      0.00137978115         89.9330562
                    0.00111886439        -90.3447089        0.990374514       -0.109771366      0.00137978115         89.9330562      0.00966925679         5.73555573

         120000000      0.0110505568         7.72961707      0.00165682367         89.9440139        0.989042367       -0.158755601      0.00134259929        -90.4136142
                    0.00165682367         89.9440139      0.00969277187         6.86764918      0.00134225519        -90.4099983        0.990370197       -0.131720723
                      0.989042367       -0.158755601      0.00134225519        -90.4099983       0.0110506617         7.73095905      0.00165575875         89.9196451
                    0.00134259929        -90.4136142        0.990370197       -0.131720723      0.00165575875         89.9196451      0.00969273829         6.87081742

         140000000      0.0110893403         8.99589874      0.00193299483         89.9346473         0.98903688       -0.185208115      0.00156631493        -90.4825015
                    0.00193299483         89.9346473      0.00972008539         7.99643652      0.00156591468        -90.4782838        0.990365477       -0.153668308
                       0.98903688       -0.185208115      0.00156591468        -90.4782838       0.0110894823         8.99742372      0.00193174944         89.9062199
                    0.00156631493        -90.4825015        0.990365477       -0.153668308      0.00193174944         89.9062199      0.00972003941         8.00012925

         160000000      0.0111335653         10.2527155      0.00220918296         89.9252626        0.989030915       -0.211658444      0.00179000846        -90.5513682
                    0.00220918296         89.9252626      0.00975119034         9.11845881      0.00178955265        -90.5465493        0.990360353       -0.175613994
                      0.989030915       -0.211658444      0.00178955265        -90.5465493       0.0111337495         10.2544057      0.00220775579         89.8927778
                    0.00179000846        -90.5513682        0.990360353       -0.175613994      0.00220775579         89.8927778       0.0097511299         9.12267429

         180000000      0.0111831698         11.4989739      0.00248539077         89.9158569        0.989024473       -0.238106433      0.00201367708        -90.6202119
                    0.00248539077         89.9158569      0.00978605262         10.2329282      0.00201316636        -90.6147921        0.990354825       -0.197557647
                      0.989024473       -0.238106433      0.00201316636        -90.6147921       0.0111834011         11.5008094      0.00248378031         89.8793162
                    0.00201367708        -90.6202119        0.990354825       -0.197557647      0.00248378031         89.8793162      0.00978597554         10.2376648

         200000000       0.011238085         12.7336379      0.00276162097         89.9064274        0.989017553       -0.264551919      0.00223731796        -90.6890297
                    0.00276162097         89.9064274      0.00982463438         11.3390893      0.00223675308        -90.6830096        0.990348893       -0.219499124
                      0.989017553       -0.264551919      0.00223675308        -90.6830096        0.011238368          12.735597      0.00275982556         89.8658324
                    0.00223731796        -90.6890297        0.990348893       -0.219499124      0.00275982556         89.8658324      0.00982453844          11.344345

         220000000      0.0112982362         13.9557326      0.00303787625         89.8969713        0.989010153       -0.290994732       0.0024609283        -90.7578192
                    0.00303787625         89.8969713      0.00986689435         12.4362213      0.00246031011        -90.7511993        0.990342556       -0.241438278
                      0.989010153       -0.290994732      0.00246031011        -90.7511993       0.0112985756         13.9577918      0.00303589403         89.8523238
                     0.0024609283        -90.7578192        0.990342556       -0.241438278      0.00303589403         89.8523238       0.0098667772         12.4419942

         240000000      0.0113635436         15.1643474      0.00331415929         89.8874858        0.989002276       -0.317434699      0.00268450529        -90.8265775
                    0.00331415929         89.8874858        0.009912788         13.5236409       0.0026838347        -90.8193585        0.990335816       -0.263374957
                      0.989002276       -0.317434699       0.0026838347        -90.8193585       0.0113639433         15.1664822      0.00331198825         89.8387877
                    0.00268450529        -90.8265775        0.990335816       -0.263374957      0.00331198825         89.8387877      0.00991264723         13.5299289

         260000000      0.0114339221         16.3586392      0.00359047275          89.877968        0.988993921       -0.343871642      0.00290804615        -90.8953022
                    0.00359047275          89.877968      0.00996226784          14.600704      0.00290732417        -90.8874848        0.990328671       -0.285309009
                      0.988993921       -0.343871642      0.00290732417        -90.8874848       0.0114343859         16.3608238      0.00358811069         89.8252215
                    0.00290804615        -90.8953022        0.990328671       -0.285309009      0.00358811069         89.8252215      0.00996210093         14.6075048

         280000000      0.0115092822          17.537834      0.00386681931         89.8684153        0.988985087       -0.370305384       0.0031315481        -90.9639905
                    0.00386681931         89.8684153       0.0100152837         15.6668071      0.00313077582        -90.9555754        0.990321122       -0.307240276
                      0.988985087       -0.370305384      0.00313077582        -90.9555754       0.0115098137         17.5400415      0.00386426387         89.8116226
                     0.0031315481        -90.9639905        0.990321122       -0.307240276      0.00386426387         89.8116226        0.010015088         15.6741185

         300000000      0.0115895306         18.7012276      0.00414320158         89.8588249        0.988975777       -0.396735744      0.00335500835        -91.0326398
                    0.00414320158         89.8588249       0.0100717827         16.7213884      0.00335418695        -91.0236279         0.99031317       -0.329168603
                      0.988975777       -0.396735744      0.00335418695        -91.0236279        0.011590133         18.7034306      0.00414045021         89.7979885
                    0.00335500835        -91.0326398         0.99031317       -0.329168603      0.00414045021         89.7979885       0.0100715555         16.7292084

         320000000      0.0116745706         19.8481863       0.0044196222          89.849194        0.988965989       -0.423162539      0.00357842417        -91.1012475
                     0.0044196222          89.849194       0.0101317101         17.7639291      0.00357755491        -91.0916396        0.990304815       -0.351093829
                      0.988965989       -0.423162539      0.00357755491        -91.0916396       0.0116752467         19.8503567       0.0044166722         89.7843166
                    0.00357842417        -91.1012475        0.990304815       -0.351093829       0.0044166722         89.7843166       0.0101314484         17.7722555

         340000000      0.0117643027          20.978146      0.00469608376         89.8395201        0.988955726       -0.449585587      0.00380179279        -91.1698109
                    0.00469608376         89.8395201       0.0101950088         18.7939532      0.00380087702         -91.159608        0.990296057       -0.373015797
                      0.988955726       -0.449585587      0.00380087702         -91.159608        0.011765055         20.9802554      0.00469293225         89.7706044
                    0.00380179279        -91.1698109        0.990296057       -0.373015797      0.00469293225         89.7706044       0.0101947097         18.8027838

         360000000      0.0118586249          22.090612      0.00497258886         89.8298002        0.988944985       -0.476004706      0.00402511149        -91.2383275
                    0.00497258886         89.8298002       0.0102616203         19.8110277      0.00402415064        -91.2275306        0.990286898       -0.394934346
                      0.988944985       -0.476004706      0.00402415064        -91.2275306       0.0118594556          22.092632       0.0049692328         89.7568492
                    0.00402511149        -91.2383275        0.990286898       -0.394934346       0.0049692328         89.7568492       0.0102612806         19.8203606

         380000000      0.0119574334         23.1851572      0.00524914006         89.8200319        0.988933771       -0.502419711      0.00424837756        -91.3067947
                    0.00524914006         89.8200319       0.0103314842         20.8147627      0.00424737315        -91.2954047        0.990277337       -0.416849317
                      0.988933771       -0.502419711      0.00424737315        -91.2954047       0.0119583441         23.1870594      0.00524557624         89.7430487
                    0.00424837756        -91.3067947        0.990277337       -0.416849317      0.00524557624         89.7430487       0.0103311007         20.8245959

         400000000      0.0120606229         24.2614196      0.00552573992         89.8102124        0.988922082       -0.528830419      0.00447158829        -91.3752099
                    0.00552573992         89.8102124       0.0104045393         21.8048104      0.00447054191        -91.3632279        0.990267376       -0.438760551
                      0.988922082       -0.528830419      0.00447054191        -91.3632279       0.0120616152          24.263176      0.00552196495         89.7292004
                    0.00447158829        -91.3752099        0.990267376       -0.438760551      0.00552196495         89.7292004       0.0104041084         21.8151422

         420000000      0.0121680873         25.3191011      0.00580239095         89.8003392         0.98890992       -0.555236647      0.00469474099        -91.4435704
                    0.00580239095         89.8003392       0.0104807229         22.7808647      0.00469365434        -91.4309977        0.990257015       -0.460667888
                       0.98890992       -0.555236647      0.00469365434        -91.4309977       0.0121691622         25.3206836      0.00579840129         89.7153017
                    0.00469474099        -91.4435704        0.990257015       -0.460667888      0.00579840129         89.7153017       0.0104802412         22.7916934

         440000000      0.0122797198         26.3579636      0.00607909566         89.7904095        0.988897285       -0.581638212        0.004917833        -91.5118738
                    0.00607909566         89.7904095        0.010559972         23.7426599      0.00491670784        -91.4987115        0.990246254       -0.482571169
                      0.988897285       -0.581638212      0.00491670784        -91.4987115       0.0122808781         26.3593451      0.00607488761         89.7013503
                      0.004917833        -91.5118738        0.990246254       -0.482571169      0.00607488761         89.7013503       0.0105594356         23.7539841

         460000000      0.0123954134         27.3778271      0.00635585653          89.780421        0.988884179       -0.608034931      0.00514086168        -91.5801176
                    0.00635585653          89.780421       0.0106422224         24.6899696      0.00513969986        -91.5663669        0.990235096       -0.504470236
                      0.988884179       -0.608034931      0.00513969986        -91.5663669       0.0123966554         27.3789809      0.00635142621         89.6873437
                    0.00514086168        -91.5801176        0.990235096       -0.504470236      0.00635142621         89.6873437       0.0106416277         24.7017882

         480000000      0.0125150614         28.3785653      0.00663267602         89.7703709        0.988870602       -0.634426628      0.00536382438        -91.6482991
                    0.00663267602         89.7703709       0.0107274101         25.6226057      0.00536262783        -91.6339613         0.99022354        -0.52636493
                      0.988870602       -0.634426628      0.00536262783        -91.6339613       0.0125163872         28.3794655      0.00662801942         89.6732795
                    0.00536382438        -91.6482991         0.99022354        -0.52636493      0.00662801942         89.6732795       0.0107267529         25.6349176

         500000000      0.0126385575         29.3601041      0.00690955656         89.7602567        0.988856556       -0.660813112      0.00558671849        -91.7164158
                    0.00690955656         89.7602567       0.0108154706          26.540416      0.00558548923        -91.7014924        0.990211589       -0.548255094
                      0.988856556       -0.660813112      0.00558548923        -91.7014924       0.0126399667         29.3607257      0.00690466948         89.6591554
                    0.00558671849        -91.7164158        0.990211589       -0.548255094      0.00690466948         89.6591554       0.0108147466         26.5532204

         520000000      0.0127657963         30.3224158      0.00718650055          89.750076        0.988842042       -0.687194211      0.00580954142        -91.7844653
                    0.00718650055          89.750076       0.0109063393         27.4432833      0.00580828155        -91.7689577        0.990199241       -0.570140572
                      0.988842042       -0.687194211      0.00580828155        -91.7689577       0.0127672883         30.3227348      0.00718137866         89.6449689
                    0.00580954142        -91.7844653        0.990199241       -0.570140572      0.00718137866         89.6449689       0.0109055443         27.4565798

         540000000      0.0128966733         31.2655184      0.00746351038         89.7398263         0.98882706       -0.713569741      0.00603229061        -91.8524452
                    0.00746351038         89.7398263       0.0109999518         28.3311235      0.00603100231        -91.8363548          0.9901865       -0.592021208
                       0.98882706       -0.713569741      0.00603100231        -91.8363548       0.0128982472         31.2655116      0.00745814918         89.6307178
                    0.00603229061        -91.8524452          0.9901865       -0.592021208      0.00745814918         89.6307178       0.0109990813         28.3449119

         560000000      0.0130310856         32.1894696      0.00774058838         89.7295051        0.988811613       -0.739939529       0.0062549635        -91.9203529
                    0.00774058838         89.7295051       0.0110962441         29.2038836      0.00625364903        -91.9036812        0.990173366       -0.613896849
                      0.988811613       -0.739939529      0.00625364903        -91.9036812         0.01303274          32.189115      0.00773498322         89.6163998
                     0.0062549635        -91.9203529        0.990173366       -0.613896849      0.00773498322         89.6163998       0.0110952934         29.2181639

